#Digilent WaveForms Network Analyzer - Bode
#Device Name: Discovery2
#Serial Number: SN:210321A18976
#Date Time: 2018-10-19 15:11:12.806
#Start: 0.1 Hz
#Stop: 100 Hz
#Steps: 20
#Wavegen: Wavegen1
#Amplification: 1 X
#Settle: 10 ms
#MinPeriods: 16
#Channel: Channel 1
#Range: 5.45285 V
#Offset: -3.72698e-05 V
#Relative: no
#Channel: Channel 2
#Range: 5.47492 V
#Offset: 0.000104841 V
#Relative: yes

Frequency (Hz),Channel 1 Magnitude (dB),Channel 2 Magnitude (dB),Channel 2 Phase (°)
0.10000000000000012,-0.00029681503688836408,-6.8742479325007348,158.57090525343091
0.14384498882876628,-0.00045939712015656878,-2.0910453637985111,151.1049865708697
0.20691380811147922,-0.00029521891051376826,2.6002793318611968,141.02043384988389
0.29763514416313219,-0.00051516256944538527,4.2897920954380551,127.96043361676155
0.42813323987193957,-2.26651529148688e-05,4.5563636927750908,112.93718764538107
0.61584821106602672,0.00026395633398228462,4.5715125586821248,96.427375911024853
0.88586679041008309,0.00033795235861206098,4.4592863753394587,78.721931872885946
1.2742749857031348,0.00065819123503050951,4.2034018376891229,59.365357994913822
1.8329807108324367,0.0010377230639058272,3.7243884359130157,38.338851035617779
2.6366508987303581,0.00086407706009462078,2.9168073634977039,16.146737884590891
3.7926901907322499,0.0013111143521940137,1.7232150088642957,-5.672505084524289
5.4555947811685224,0.001546887312399904,0.17242250235873091,-25.320919965453868
7.8475997035146143,0.0010870717570609133,-1.6141266582617195,-41.694288803189423
11.288378916846895,0.00073433123094287481,-3.5243505468615965,-54.565354161477572
16.237767391887218,0.00072373612804437133,-5.4554770527769678,-64.347708621039942
23.35721469090123,0.00075735754893662311,-7.4097321611714806,-71.668536168574576
33.598182862837817,0.00067290749733608056,-9.5797688087756256,-77.07427496020486
48.32930238571754,0.0004835819742010683,-12.389713477918697,-80.80678994954377
69.519279617756041,0.00065375830000205927,-15.441582598402375,-83.376043016096133
100,0.00036004420705587549,-18.512192493107641,-85.243051424224518
