#Digilent WaveForms Network Analyzer - Bode
#Device Name: Discovery2
#Serial Number: SN:210321A18988
#Date Time: 2018-10-05 14:16:56.134
#Start: 10 Hz
#Stop: 1e+06 Hz
#Steps: 100
#Wavegen: Wavegen1
#Amplification: 1 X
#Settle: 10 ms
#MinPeriods: 16
#Channel: Channel 1
#Range: 5.43833 V
#Offset: 1.99864e-05 V
#Relative: no
#Channel: Channel 2
#Range: 5.48642 V
#Offset: -0.000238097 V
#Relative: yes

Frequency (Hz),Channel 1 Magnitude (dB),Channel 2 Magnitude (dB),Channel 2 Phase (°)
10,0.012443064351694113,-0.19399592248838643,-6.3253786335857924
11.233240329780266,0.012347372783513678,-0.20908557784223031,-7.0950149985464463
12.618568830660211,0.01235407018132683,-0.22761477096517893,-7.954115662998591
14.174741629268048,0.01240195969723842,-0.25052996780183728,-8.9145604781421639
15.922827933410938,0.012186313497085665,-0.27886409502616333,-9.9867328858079247
17.886495290574349,0.012436747921615492,-0.31459188959338169,-11.179222160931829
20.092330025650458,0.012320498859950228,-0.3585674104742384,-12.507528192313885
22.570197196339215,0.012230088432444223,-0.41306523249991778,-13.979942353607711
25.353644939701113,0.012140121117575205,-0.48044887407766862,-15.612747116572578
28.480358684358048,0.012046828691085781,-0.56388297843919388,-17.412820925976398
31.992671377973846,0.012182153840033011,-0.66560693419557182,-19.389972923695375
35.938136638046252,0.012340895677154538,-0.79049306724895008,-21.552497989522507
40.370172585965584,0.01222123553125053,-0.94238225101289885,-23.904228962455136
45.348785081285826,0.012086907050416205,-1.1254603115669388,-26.444922972179477
50.941380148163859,0.012029567664262693,-1.3450511154334039,-29.164174919191709
57.223676593502205,0.011946262231390576,-1.6054926332256116,-32.053775721297285
64.28073117284319,0.011819125749891312,-1.9118675410720076,-35.091293648564275
72.208090183854566,0.012235835706470298,-2.2689428091843546,-38.248410437419039
81.113083078968714,0.012016964496087457,-2.6786688979744704,-41.494220645275959
91.116275611548872,0.011967052570345084,-3.144473604316202,-44.788410960286484
102.35310218990257,0.01171184622225872,-3.6665690753982942,-48.089867491888953
114.97569953977356,0.012277595542602836,-4.2439740859101303,-51.35795352915931
129.15496650148842,0.011845259130812344,-4.8749260187988712,-54.555295911608937
145.08287784959387,0.011830342709745856,-5.5572584890488663,-57.647309323983833
162.97508346206433,0.01206304518160942,-6.2844725270639046,-60.602780661172439
183.07382802953697,0.011645717612830338,-7.0536419744218382,-63.413157847884086
205.65123083486515,0.011966264343602007,-7.8598588185641507,-66.052052924030249
231.01297000831582,0.011486275514513975,-8.6982515567446068,-68.522465388772957
259.50242113997376,0.011907992652634716,-9.5646226774496785,-70.824348534412252
291.50530628251761,0.011883658016697954,-10.454303107559412,-72.956463123317008
327.45491628777251,0.011579212956887658,-11.363223253942323,-74.933706262679763
367.83797718286343,0.011851621969000112,-12.287027289357802,-76.762366977453212
413.20124001153425,0.011345813677217495,-13.228562797093726,-78.451073072327503
464.15888336127722,0.011826339818494003,-14.180993938913709,-80.026264685527423
521.40082879996839,0.011681568352086306,-15.140382433283804,-81.506557549987036
585.70208180566726,0.010418168436454527,-16.109380572462289,-82.889107509508619
657.93322465756819,0.011543913469864713,-17.082405346249363,-84.174996463213787
739.0722033525775,0.011256153435865043,-18.067159770210715,-85.41890895961717
830.21756813197521,0.010563925015545417,-19.048332042479824,-86.608681644974752
932.60334688321996,0.010792229462080383,-20.036439579976424,-87.769302699269133
1047.6157527896642,0.011240922967185426,-21.025041590209991,-88.898515512698324
1176.8119524349993,0.011522393911973763,-22.024855700227818,-90.043257386341423
1321.9411484660302,0.011097262043921351,-23.025349099837062,-91.185316238444017
1484.9682622544651,0.010727816958918694,-24.026165837728133,-92.375818836125433
1668.1005372000593,0.010359472377405095,-25.041364402288767,-93.550575379953088
1873.817422860385,0.0095346397162993073,-26.041996465695725,-94.825098684136208
2104.9041445120197,0.0099324504052470258,-27.083086179069923,-96.102765384953074
2364.4894126454069,0.0095223573606340369,-28.108466311850876,-97.533481646342807
2656.0877829466867,0.0097241864576759051,-29.144115819145689,-98.997574442668451
2983.6472402833406,0.010219697251381816,-30.160314923353653,-100.60941202421881
3351.6026509388444,0.010059340769805997,-31.222262865086631,-102.43107455596763
3764.9358067924677,0.009401315948219446,-32.32442736611506,-104.19020587466672
4229.2428743894989,0.008824042923618278,-33.419498103669063,-106.30381087791488
4750.8101621027981,0.0070083228171704997,-34.546092329089973,-108.49904388093623
5336.6992312063066,0.010392350394172847,-35.669919520529191,-110.76700788183842
5994.8425031894085,0.010658164621637038,-36.836090892853001,-113.34997211262586
6734.1506577508208,0.0009546765529079718,-38.02390474005167,-116.04473897462962
7564.6332755462909,0.010712644249505529,-39.244158372623836,-119.06408041723539
8497.5343590864395,0.010999760016021581,-40.41873506998008,-121.96925777624961
9545.4845666183373,0.0061348033171352533,-41.682097213595092,-125.24343562542116
10722.672220103232,0.013495919061012199,-42.983687232658703,-128.65412524613856
12045.035402587819,0.015042429964084844,-44.428369955948924,-130.81686625838356
13530.477745798074,0.012707722833734688,-45.944630679921147,-135.42118508330839
15199.110829529331,0.01767624949720217,-47.422599167383375,-138.1616614705344
17073.526474706923,0.020452978717378452,-49.067105905825279,-141.83500672426618
19179.102616724886,0.02064262038853882,-50.559354303185422,-144.21874737861322
21544.346900318822,0.021160424772422616,-52.509731424250397,-148.75983707064319
24201.282647943834,0.025191618216221859,-54.353350533897533,-150.26413568828917
27185.882427329401,0.027037716590706834,-55.949915496172153,-153.81291391604236
30538.555088334171,0.017350895908172039,-57.468997482737187,-155.10463284167082
34304.69286314919,0.033214528150359163,-59.319098355386828,-155.04536060324699
38535.285937105269,0.037211678438032948,-60.464638366478368,-161.28640598583513
43287.612810830593,0.041617000533090039,-63.54591874454109,-162.97356339929894
48626.015800653528,0.045151463698509635,-63.660752925600328,-168.31052651843339
54622.772176843428,0.050362178394298747,-65.914024992653253,-167.09016523588363
61359.072734131725,0.054887668468439975,-68.85889715373024,-168.04984179429965
68926.121043496954,0.062104263365039464,-69.76282445084226,-152.48432102030733
77426.368268112696,0.066759996579364239,-76.229054223420405,-152.73767535605444
86974.900261778297,0.067852341459025509,-72.60072978333298,-161.51400857189691
97700.995729922564,0.076575075324896602,-72.964117215170191,-160.71106865227318
109749.8765493056,0.079685713303954159,-70.821655270259285,-168.59232092466277
123284.67394420668,0.083070310652980359,-86.951457627747274,62.178453512855995
138488.63713938731,0.084754340200779696,-89.005530428275264,-144.22977361977567
155567.61439304712,0.071837845910326256,-88.482590869050242,-46.430496282658623
174752.84000076842,0.076979692157151836,-79.095048641338309,179.38194433466595
196304.06500402704,0.077146039421042506,-79.126843262990718,-114.37612776936425
220513.07399030466,0.069929478794573618,-78.939946020591321,62.35239494110958
247707.63559917107,0.064306128050290262,-72.06467649516415,-158.01125917425318
278255.94022071233,0.053920790299907068,-71.595387047182285,156.55644774979407
312571.58496882371,0.03607878334892712,-74.750181427001849,160.41877004504011
351119.173421513,0.027535113735649694,-93.775523638244238,152.98414816136386
394420.60594376572,0.011336865966842833,-83.977988862759787,-137.73057148822053
443062.14575838798,-0.0034012884127436276,-75.436264641333864,104.56491729655134
497702.35643321136,-0.015421359774690731,-78.472895864693484,-179.3681026962137
559081.01825122233,-0.030896645333544259,-82.349395071858567,99.857218656605653
628029.14418342488,-0.052986179084234183,-84.08437293526022,175.61262625020026
705480.23107186449,-0.056399435401709191,-79.100910629369423,135.9641446425633
792482.89835391717,-0.071956182430285759,-79.293152981271959,175.43355966446089
890215.08544503897,-0.086523617624757174,-82.69685739525714,176.03836959153119
1000000,-0.10025961899827626,-92.958266392118162,-165.89199304159425
